! 1/7/2014 5:28:54 PM
! C:\USERS\VECTORSTARUSER\DESKTOP\GABRIEL SMS\60GRAUS.S2P
! CHANNEL.1
! TR.MEASUREMENT
! RAW.DATA
# GHZ S RI R 50.0
! FREQ.GHZ         S11RE         S11IM         S21RE         S21IM         S12RE         S12IM         S22RE         S22IM         
!; PortSelection: Port_12
   2.050000010     0.2118471    0.2207045    -0.6143538    0.3302317    -0.7053210    0.1983337     0.1101057    0.3023789 
   2.055750010     0.2415688    0.1598019    -0.5391075    0.4534046    -0.6516923    0.3348666     0.1809473    0.2659640 
   2.061500010     0.2520660    0.1050987    -0.4362570    0.5599429    -0.5744758    0.4589586     0.2390101    0.2081057 
   2.067250010     0.2550871    0.0621971    -0.3100018    0.6420467    -0.4744328    0.5679886     0.2748029    0.1370327 
   2.073000010     0.2611882    0.0255395    -0.1678181    0.6930369    -0.3518327    0.6573525     0.2861494    0.0656391 
   2.078750010     0.2720439   -0.0161854    -0.0195151    0.7105761    -0.2095743    0.7205657     0.2800162    0.0046329 
   2.084500010     0.2787685   -0.0702322     0.1256183    0.6965826    -0.0543503    0.7513329     0.2673933   -0.0436843 
   2.090250010     0.2695580   -0.1342002     0.2625853    0.6553596     0.1045612    0.7460706     0.2559977   -0.0855148 
   2.096000010     0.2379838   -0.1971578     0.3891362    0.5897467     0.2574068    0.7054805     0.2447682   -0.1294208 
   2.101750010     0.1872796   -0.2466578     0.5023168    0.5007157     0.3954625    0.6339713     0.2262709   -0.1781666 
   2.107500010     0.1274235   -0.2762442     0.5970113    0.3884674     0.5135297    0.5374988     0.1932594   -0.2268888 
   2.113250009     0.0696915   -0.2879629     0.6666536    0.2563415     0.6091380    0.4218430     0.1454049   -0.2661058 
   2.119000009     0.0188919   -0.2901342     0.7056096    0.1102967     0.6809050    0.2904618     0.0894276   -0.2886754 
   2.124750009    -0.0285434   -0.2904390     0.7105737   -0.0403617     0.7264276    0.1465894     0.0346406   -0.2945690 
   2.130500009    -0.0806239   -0.2891743     0.6820784   -0.1861655     0.7419696   -0.0059533    -0.0129604   -0.2897773 
   2.136250009    -0.1421008   -0.2780936     0.6239763   -0.3188852     0.7240446   -0.1594413    -0.0541427   -0.2818038 
   2.142000009    -0.2088709   -0.2468403     0.5424608   -0.4339407     0.6725018   -0.3047641    -0.0950176   -0.2736597 
   2.147750009    -0.2687882   -0.1900167     0.4431421   -0.5290965     0.5914854   -0.4329816    -0.1410972   -0.2610382 
   2.153500009    -0.3083937   -0.1113931     0.3294636   -0.6034585     0.4882815   -0.5382936    -0.1921218   -0.2359600 
   2.159250009    -0.3182447   -0.0229242     0.2050952   -0.6559082     0.3707271   -0.6190120    -0.2404176   -0.1925185 
   2.165000009    -0.2974601    0.0607974     0.0726937   -0.6847714     0.2438989   -0.6765189    -0.2759323   -0.1317930 
   2.170750009    -0.2532582    0.1273462    -0.0641493   -0.6884093     0.1096683   -0.7124369    -0.2909686   -0.0612019 
   2.176500009    -0.1973601    0.1716274    -0.2010790   -0.6660596    -0.0308374   -0.7255272    -0.2837775    0.0091255 
   2.182250009    -0.1407975    0.1950821    -0.3334693   -0.6160309    -0.1758295   -0.7124773    -0.2587299    0.0709473 
   2.188000009    -0.0898719    0.2039785    -0.4552462   -0.5388715    -0.3203743   -0.6692460    -0.2224214    0.1205456 
   2.193750009    -0.0458872    0.2046175    -0.5601541   -0.4367085    -0.4563841   -0.5941088    -0.1807842    0.1585934 
   2.199500009    -0.0072614    0.2008941    -0.6421343   -0.3134136    -0.5747087   -0.4885632    -0.1363858    0.1876678 
   2.205250009     0.0280294    0.1936519    -0.6967270   -0.1738234    -0.6673207   -0.3579861    -0.0889864    0.2090935 
   2.211000009     0.0604199    0.1830885    -0.7204994   -0.0244607    -0.7283000   -0.2095291    -0.0381609    0.2218990 
   2.216750009     0.0896601    0.1696359    -0.7110101    0.1275618    -0.7553415   -0.0525384     0.0143410    0.2240631 
   2.222500009     0.1167439    0.1548840    -0.6688128    0.2744331    -0.7483791    0.1054293     0.0650631    0.2145537 
   2.228250008     0.1434261    0.1388466    -0.5955063    0.4082597    -0.7094126    0.2573641     0.1099530    0.1949624 
   2.234000008     0.1716951    0.1196197    -0.4953423    0.5220353    -0.6404125    0.3978282     0.1470910    0.1686651 
   2.239750008     0.2016477    0.0934736    -0.3746561    0.6107492    -0.5441825    0.5210766     0.1769057    0.1388381 
   2.245500008     0.2299659    0.0560853    -0.2398238    0.6713987    -0.4239729    0.6217770     0.2007438    0.1071945 
   2.251250008     0.2499718    0.0067363    -0.0979543    0.7031867    -0.2855182    0.6946505     0.2192338    0.0737289 
   2.257000008     0.2555795   -0.0516695     0.0469716    0.7074590    -0.1352702    0.7364917     0.2320487    0.0381125 
   2.262750008     0.2424931   -0.1127092     0.1905196    0.6831501     0.0193273    0.7458875     0.2384246    0.0013870 
   2.268500008     0.2105186   -0.1686627     0.3271413    0.6294596     0.1713920    0.7232947     0.2383659   -0.0346476 
   2.274250008     0.1629336   -0.2127807     0.4494745    0.5469539     0.3145239    0.6703832     0.2335376   -0.0687784 
   2.280000008     0.1054127   -0.2410440     0.5505114    0.4401312     0.4432735    0.5896377     0.2256164   -0.1020721 
   2.285750008     0.0436781   -0.2521996     0.6253040    0.3157335     0.5518228    0.4845836     0.2141856   -0.1367644 
   2.291500008    -0.0171735   -0.2470090     0.6721662    0.1810288     0.6358994    0.3605230     0.1957787   -0.1742213 
   2.297250008    -0.0731538   -0.2272650     0.6908876    0.0421338     0.6924152    0.2235095     0.1659629   -0.2124618 
   2.303000008    -0.1211996   -0.1953437     0.6825783   -0.0958147     0.7203497    0.0797131     0.1218602   -0.2454858 
   2.308750008    -0.1592541   -0.1540116     0.6482515   -0.2284680     0.7196868   -0.0654534     0.0648399   -0.2658656 
   2.314500008    -0.1858239   -0.1060796     0.5896236   -0.3522977     0.6911197   -0.2067487     0.0007281   -0.2675403 
   2.320250008    -0.1997910   -0.0546174     0.5081422   -0.4624479     0.6361563   -0.3395978    -0.0618874   -0.2485670 
   2.326000008    -0.2007498   -0.0023750     0.4067905   -0.5551450     0.5569859   -0.4596376    -0.1150932   -0.2115923 
   2.331750008    -0.1885457    0.0467872     0.2890491   -0.6266444     0.4561330   -0.5631173    -0.1534190   -0.1621247 
   2.337500007    -0.1645177    0.0888091     0.1588069   -0.6746755     0.3363025   -0.6461774    -0.1745377   -0.1070131 
   2.343250007    -0.1318943    0.1195677     0.0199894   -0.6967520     0.2005173   -0.7050456    -0.1791720   -0.0528235 
   2.349000007    -0.0964497    0.1368931    -0.1226975   -0.6908960     0.0531835   -0.7360556    -0.1696486   -0.0045899 
   2.354750007    -0.0642807    0.1423634    -0.2638877   -0.6552563    -0.1002492   -0.7360775    -0.1500333    0.0337330 
   2.360500007    -0.0402446    0.1408992    -0.3963389   -0.5897672    -0.2523606   -0.7032480    -0.1260185    0.0600661 
   2.366250007    -0.0244790    0.1394843    -0.5131387   -0.4964761    -0.3957708   -0.6378425    -0.1037216    0.0752105 
   2.372000007    -0.0125772    0.1438580    -0.6083730   -0.3792849    -0.5226961   -0.5422283    -0.0882202    0.0832298 
   2.377750007     0.0036950    0.1545108    -0.6762325   -0.2417885    -0.6269940   -0.4198872    -0.0807980    0.0913388 
   2.383500007     0.0290837    0.1658001    -0.7109892   -0.0931847    -0.7004912   -0.2786193    -0.0791188    0.1061907 
   2.389250007     0.0668457    0.1691833    -0.7105909    0.0617035    -0.7410071   -0.1224451    -0.0724820    0.1312431 
   2.395000007     0.1103774    0.1567632    -0.6755162    0.2107915    -0.7451673    0.0387973    -0.0523825    0.1620468 
   2.400750007     0.1463593    0.1271421    -0.6143943    0.3391650    -0.7154993    0.1883055    -0.0200028    0.1883002 
   2.406500007     0.1698591    0.0854898    -0.5316759    0.4521865    -0.6586184    0.3269359     0.0247505    0.2003111 
   2.412250007     0.1768515    0.0402158    -0.4301415    0.5483986    -0.5783426    0.4514358     0.0711763    0.1929487 
   2.418000007     0.1701260   -0.0002788    -0.3108009    0.6250958    -0.4755464    0.5596184     0.1080714    0.1697853 
   2.423750007     0.1564021   -0.0337726    -0.1761896    0.6771151    -0.3516458    0.6466361     0.1293663    0.1408552 
   2.429500007     0.1395597   -0.0627671    -0.0317752    0.6998187    -0.2099306    0.7068570     0.1382028    0.1161006 
   2.435250007     0.1193433   -0.0910809     0.1151590    0.6906171    -0.0571287    0.7351428     0.1439771    0.0996397 
   2.441000007     0.0908106   -0.1192216     0.2558831    0.6497694     0.0981587    0.7290776     0.1551665    0.0867044 
   2.446750007     0.0501780   -0.1408456     0.3831793    0.5797889     0.2471202    0.6891969     0.1728931    0.0672969 
   2.452500006     0.0001167   -0.1472589     0.4912441    0.4859808     0.3818446    0.6197115     0.1893733    0.0344220 
   2.458250006    -0.0498722   -0.1330625     0.5768646    0.3745011     0.4975811    0.5264233     0.1933043   -0.0106360 
   2.464000006    -0.0880514   -0.1005042     0.6392386    0.2501369     0.5921934    0.4144015     0.1770852   -0.0582189 
   2.469750006    -0.1061835   -0.0599500     0.6773084    0.1158957     0.6641716    0.2861086     0.1421975   -0.0962857 
   2.475500006    -0.1051755   -0.0238994     0.6886609   -0.0252805     0.7107061    0.1442599     0.0971125   -0.1167428 
   2.481250006    -0.0939474   -0.0010171     0.6703990   -0.1678151     0.7275633   -0.0066051     0.0527595   -0.1190965 
   2.487000006    -0.0838000    0.0090271     0.6212886   -0.3044661     0.7111904   -0.1593190     0.0161499   -0.1086566 
   2.492750006    -0.0812543    0.0134894     0.5432429   -0.4276097     0.6616742   -0.3054501    -0.0114658   -0.0921315 
   2.498500006    -0.0852265    0.0212658     0.4414479   -0.5313610     0.5826974   -0.4372942    -0.0319461   -0.0728979 
   2.504250006    -0.0685713    0.0059047     0.4294503   -0.6024556     0.4285626   -0.6140694    -0.0549370   -0.0988178 
   2.510000006    -0.0643130    0.0249730     0.2930816   -0.6777357     0.2911590   -0.6891617    -0.0624153   -0.0750853 
   2.515750006    -0.0518525    0.0414707     0.1454002   -0.7224426     0.1419893   -0.7339277    -0.0595320   -0.0524890 
   2.521500006    -0.0353573    0.0521955    -0.0138036   -0.7430811    -0.0168207   -0.7496349    -0.0465402   -0.0381011 
   2.527250006    -0.0216819    0.0557211    -0.1632579   -0.7192675    -0.1761589   -0.7301108    -0.0301847   -0.0388763 
   2.533000006    -0.0114794    0.0601742    -0.3114741   -0.6692358    -0.3264903   -0.6752008    -0.0228004   -0.0551343 
   2.538750006     0.0011547    0.0697094    -0.4497876   -0.5886158    -0.4673841   -0.5884960    -0.0347257   -0.0770698 
   2.544500006     0.0233533    0.0808460    -0.5672900   -0.4763543    -0.5834070   -0.4682621    -0.0671352   -0.0884110 
   2.550250006     0.0576470    0.0831614    -0.6542574   -0.3378234    -0.6697494   -0.3234416    -0.1094896   -0.0756204 
   2.556000006     0.0977763    0.0660708    -0.7022239   -0.1865077    -0.7063709   -0.1739177    -0.1398738   -0.0380692 
   2.561750006     0.1285086    0.0262518    -0.7160628   -0.0353692    -0.7171884   -0.0247385    -0.1469365    0.0125704 
   2.567500005     0.1351208   -0.0278380    -0.7028735    0.1101861    -0.6998545    0.1153475    -0.1277462    0.0566963 
   2.573250005     0.1119237   -0.0780970    -0.6644983    0.2503689    -0.6643988    0.2569764    -0.0945516    0.0830895 
   2.579000005     0.0671671   -0.1064438    -0.5988282    0.3823654    -0.5986078    0.3900257    -0.0633869    0.0889249 
   2.584750005     0.0191947   -0.1053493    -0.5049322    0.5041429    -0.5034638    0.5081673    -0.0440512    0.0862741 
   2.590500005    -0.0133086   -0.0805423    -0.3842546    0.5996636    -0.3829604    0.6045021    -0.0343876    0.0875481 
   2.596250005    -0.0210194   -0.0492139    -0.2454670    0.6672952    -0.2440203    0.6730532    -0.0226357    0.0981589 
   2.602000005    -0.0093088   -0.0289229    -0.0950469    0.7027329    -0.0959388    0.7068403     0.0007594    0.1104892 
   2.607750005     0.0068488   -0.0272916     0.0579723    0.7033023     0.0591552    0.7105552     0.0371282    0.1120763 
   2.613500005     0.0132946   -0.0378081     0.2064452    0.6704514     0.2106275    0.6791655     0.0753783    0.0926247 
   2.619250005     0.0072271   -0.0478105     0.3442314    0.6071181     0.3511012    0.6146471     0.1000264    0.0536222 
   2.625000005    -0.0038877   -0.0497312     0.4656709    0.5168644     0.4740975    0.5217349     0.0996069    0.0080076 
   2.630750005    -0.0116183   -0.0450911     0.5650184    0.4028998     0.5750744    0.4039216     0.0756004   -0.0263073 
   2.636500005    -0.0142197   -0.0411716     0.6373089    0.2691025     0.6450500    0.2674914     0.0416252   -0.0382561 
   2.642250005    -0.0174159   -0.0415123     0.6803185    0.1209415     0.6849188    0.1172817     0.0135004   -0.0295848 
   2.648000005    -0.0268711   -0.0420262     0.6864802   -0.0340424     0.6897387   -0.0370251    -0.0000645   -0.0099921 
   2.653750005    -0.0415535   -0.0347429     0.6565771   -0.1869360     0.6592855   -0.1873053     0.0008413    0.0097747 
   2.659500005    -0.0527816   -0.0151562     0.5921417   -0.3256561     0.5962577   -0.3298421     0.0107381    0.0239903 
   2.665250005    -0.0503065    0.0123933     0.4974001   -0.4474440     0.5010973   -0.4498219     0.0257928    0.0322617 
   2.671000005    -0.0303624    0.0362319     0.3776855   -0.5434155     0.3811314   -0.5477693     0.0451071    0.0342635 
   2.676750005     0.0018255    0.0440608     0.2394273   -0.6055487     0.2429068   -0.6102733     0.0674144    0.0277204 
   2.682500004     0.0334257    0.0309528     0.0915839   -0.6336768     0.0942219   -0.6406356     0.0898512    0.0090287 
   2.688250004     0.0502028    0.0017977    -0.0548115   -0.6265705    -0.0540708   -0.6340757     0.1042069   -0.0234162 
   2.694000004     0.0452188   -0.0293167    -0.1860311   -0.5852785    -0.1916054   -0.5951943     0.1007583   -0.0637726 
   2.699750004     0.0242721   -0.0484572    -0.3109961   -0.5228105    -0.3179760   -0.5292808     0.0756904   -0.1015499 
   2.705500004     0.0004366   -0.0495531    -0.4205204   -0.4336323    -0.4263987   -0.4356790     0.0328090   -0.1206925 
   2.711250004    -0.0142191   -0.0386745    -0.5092440   -0.3162959    -0.5163188   -0.3150349    -0.0116438   -0.1131408 
   2.717000004    -0.0170135   -0.0274823    -0.5642378   -0.1758589    -0.5683039   -0.1734725    -0.0389819   -0.0845739 
   2.722750004    -0.0162510   -0.0232159    -0.5774624   -0.0253365    -0.5800664   -0.0235115    -0.0406267   -0.0538226 
   2.728500004    -0.0201703   -0.0222284    -0.5487366    0.1208137    -0.5498780    0.1205172    -0.0254055   -0.0388241 
   2.734250004    -0.0287291   -0.0154561    -0.4826158    0.2520136    -0.4842592    0.2505444    -0.0106778   -0.0438220 
   2.740000004    -0.0327629    0.0016262    -0.3842389    0.3590507    -0.3866204    0.3553764    -0.0094358   -0.0592942 
   2.745750004    -0.0221362    0.0215676    -0.2618794    0.4280905    -0.2659837    0.4264669    -0.0215584   -0.0720186 
   2.751500004     0.0031141    0.0310217    -0.1270372    0.4623553    -0.1334053    0.4601233    -0.0382927   -0.0773913 
   2.757250004     0.0302485    0.0196679     0.0057069    0.4517042     0.0017094    0.4555405    -0.0558690   -0.0789892 
   2.763000004     0.0441001   -0.0083802     0.1296605    0.4065825     0.1272478    0.4123715    -0.0773137   -0.0794335 
   2.768750004     0.0357316   -0.0392337     0.2339199    0.3263986     0.2321350    0.3331728    -0.1068218   -0.0740257 
   2.774500004     0.0105068   -0.0572617     0.3032647    0.2169105     0.3075878    0.2239475    -0.1414142   -0.0527572 
   2.780250004    -0.0187529   -0.0577244     0.3319534    0.0912706     0.3382532    0.0956346    -0.1683056   -0.0127195 
   2.786000004    -0.0425254   -0.0451713     0.3115703   -0.0343829     0.3183725   -0.0338607    -0.1760491    0.0390196 
   2.791750004    -0.0599299   -0.0250322     0.2456221   -0.1404941     0.2509309   -0.1443482    -0.1628818    0.0879699 
   2.797500003    -0.0699323    0.0019217     0.1454253   -0.2098733     0.1474248   -0.2152594    -0.1385668    0.1264158 
   2.803250003    -0.0688049    0.0345390     0.0286015   -0.2321743     0.0282888   -0.2365044    -0.1115373    0.1579397 
   2.809000003    -0.0531784    0.0673154    -0.0837635   -0.2046720    -0.0860873   -0.2081638    -0.0796462    0.1891722 
   2.814750003    -0.0239049    0.0941364    -0.1715684   -0.1344407    -0.1755911   -0.1363802    -0.0356122    0.2177650 
   2.820500003     0.0163078    0.1096623    -0.2220236   -0.0366326    -0.2266931   -0.0365391     0.0256378    0.2364956 
   2.826250003     0.0649380    0.1104132    -0.2281574    0.0701735    -0.2328439    0.0720242     0.0957893    0.2318206 
   2.832000003     0.1181951    0.0900306    -0.1938548    0.1690554    -0.1981694    0.1745986     0.1660403    0.2014626 
   2.837750003     0.1615612    0.0439361    -0.1280569    0.2457238    -0.1314749    0.2509069     0.2184402    0.1464007 
   2.843500003     0.1822540   -0.0227068    -0.0429229    0.2961601    -0.0455493    0.3019538     0.2490546    0.0772434 
   2.849250003     0.1698060   -0.0948399     0.0499871    0.3181908     0.0556491    0.3305680     0.2565228    0.0031412 
   2.855000003     0.1254360   -0.1538077     0.1502922    0.3174014     0.1590963    0.3272379     0.2361571   -0.0626552 
   2.860750003     0.0619647   -0.1840250     0.2539224    0.2898892     0.2668216    0.2949400     0.1987993   -0.1129316 
   2.866500003    -0.0023401   -0.1831355     0.3566673    0.2281639     0.3715094    0.2266888     0.1545676   -0.1416873 
   2.872250003    -0.0514943   -0.1593909     0.4438500    0.1269756     0.4563782    0.1190589     0.1170385   -0.1532979 
   2.878000003    -0.0815271   -0.1275886     0.4936132   -0.0094350     0.5013972   -0.0200898     0.0920385   -0.1595456 
   2.883750003    -0.0984133   -0.0982211     0.4940153   -0.1602772     0.4955150   -0.1705658     0.0721568   -0.1748498 
   2.889500003    -0.1105824   -0.0715343     0.4422246   -0.3012508     0.4424716   -0.3104471     0.0416305   -0.1973343 
   2.895250003    -0.1197189   -0.0426331     0.3525991   -0.4186392     0.3520532   -0.4278108    -0.0068974   -0.2142980 
   2.901000003    -0.1203414   -0.0108053     0.2364010   -0.5019864     0.2359567   -0.5120713    -0.0654204   -0.2099795 
   2.906750003    -0.1104209    0.0186371     0.1057713   -0.5532715     0.1032400   -0.5649740    -0.1188294   -0.1823781 
   2.912500002    -0.0934950    0.0397316    -0.0321722   -0.5713478    -0.0383732   -0.5834284    -0.1559061   -0.1406733 
   2.918250002    -0.0772390    0.0514790    -0.1713919   -0.5550760    -0.1826113   -0.5665359    -0.1775977   -0.0960826 
   2.924000002    -0.0671683    0.0600289    -0.3032864   -0.5040687    -0.3193872   -0.5120337    -0.1904995   -0.0534737 
   2.929750002    -0.0604686    0.0751514    -0.4205869   -0.4195585    -0.4401278   -0.4227751    -0.1996007   -0.0080914 
   2.935500002    -0.0464496    0.0987671    -0.5095066   -0.3073331    -0.5306890   -0.3036667    -0.2003690    0.0464244 
   2.941250002    -0.0161799    0.1224643    -0.5639195   -0.1801756    -0.5796652   -0.1700607    -0.1809639    0.1077983 
   2.947000002     0.0295973    0.1334090    -0.5843237   -0.0527811    -0.5967101   -0.0372214    -0.1337703    0.1643568 
