! 1/7/2014 5:25:19 PM
! C:\USERS\VECTORSTARUSER\DESKTOP\GABRIEL SMS\45GRAUS.S2P
! CHANNEL.1
! TR.MEASUREMENT
! RAW.DATA
# GHZ S RI R 50.0
! FREQ.GHZ         S11RE         S11IM         S21RE         S21IM         S12RE         S12IM         S22RE         S22IM         
!; PortSelection: Port_12
   2.050000010     0.2570265    0.2732033    -0.5915655    0.3140882    -0.6770880    0.1890306     0.1355185    0.3601779 
   2.055750010     0.2979282    0.2030341    -0.5211931    0.4333451    -0.6264241    0.3192840     0.2166438    0.3183717 
   2.061500010     0.3175569    0.1362100    -0.4234344    0.5373437    -0.5539595    0.4378080     0.2842010    0.2537503 
   2.067250010     0.3267735    0.0785720    -0.3019567    0.6182485    -0.4598577    0.5431890     0.3288992    0.1742282 
   2.073000010     0.3352430    0.0259418    -0.1643559    0.6684505    -0.3436410    0.6311913     0.3480785    0.0922826 
   2.078750010     0.3441631   -0.0317604    -0.0208657    0.6855244    -0.2069913    0.6947247     0.3476181    0.0182271 
   2.084500010     0.3455634   -0.1004319     0.1192462    0.6720527    -0.0562893    0.7264058     0.3374834   -0.0447784 
   2.090250010     0.3283412   -0.1771383     0.2512996    0.6323659     0.0987820    0.7220403     0.3246322   -0.1016263 
   2.096000010     0.2870603   -0.2504722     0.3729423    0.5699262     0.2474959    0.6821954     0.3084852   -0.1595728 
   2.101750010     0.2251512   -0.3086723     0.4822199    0.4849357     0.3807427    0.6121063     0.2821712   -0.2206514 
   2.107500010     0.1527637   -0.3451251     0.5744014    0.3776112     0.4938226    0.5186967     0.2397110   -0.2795886 
   2.113250009     0.0805465   -0.3612973     0.6426697    0.2499447     0.5851294    0.4076499     0.1807646   -0.3268694 
   2.119000009     0.0140389   -0.3646070     0.6808836    0.1083826     0.6542035    0.2822060     0.1123516   -0.3558075 
   2.124750009    -0.0490141   -0.3622850     0.6853326   -0.0376804     0.6987618    0.1442326     0.0438177   -0.3657945 
   2.130500009    -0.1154203   -0.3546782     0.6568389   -0.1783007     0.7145144   -0.0025204    -0.0188318   -0.3620206 
   2.136250009    -0.1889166   -0.3345030     0.5999423   -0.3053454     0.6974955   -0.1507139    -0.0751886   -0.3515233 
   2.142000009    -0.2647770   -0.2924790     0.5212855   -0.4144258     0.6476275   -0.2906220    -0.1302443   -0.3372265 
   2.147750009    -0.3316544   -0.2242902     0.4265963   -0.5042434     0.5691020   -0.4132290    -0.1884676   -0.3156453 
   2.153500009    -0.3764316   -0.1341397     0.3195283   -0.5747008     0.4701488   -0.5127746    -0.2488244   -0.2794141 
   2.159250009    -0.3903652   -0.0331929     0.2023874   -0.6250799     0.3588922   -0.5886552    -0.3039280   -0.2239918 
   2.165000009    -0.3721467    0.0641773     0.0776680   -0.6538577     0.2399701   -0.6432474    -0.3439162   -0.1505845 
   2.170750009    -0.3280117    0.1461049    -0.0514406   -0.6598928     0.1149066   -0.6786681    -0.3614964   -0.0670610 
   2.176500009    -0.2684172    0.2064778    -0.1819185   -0.6414197    -0.0167115   -0.6943415    -0.3548833    0.0168744 
   2.182250009    -0.2038708    0.2454502    -0.3091036   -0.5971187    -0.1543586   -0.6865900    -0.3279929    0.0926267 
   2.188000009    -0.1413161    0.2677707    -0.4272407   -0.5268260    -0.2938471   -0.6506375    -0.2869512    0.1561030 
   2.193750009    -0.0825219    0.2788857    -0.5305890   -0.4321335    -0.4275644   -0.5831711    -0.2373505    0.2072077 
   2.199500009    -0.0270176    0.2816816    -0.6133618   -0.3157682    -0.5459032   -0.4845960    -0.1821425    0.2474427 
   2.205250009     0.0260540    0.2771537    -0.6704661   -0.1824799    -0.6395773   -0.3595508    -0.1217176    0.2774153 
   2.211000009     0.0763833    0.2651062    -0.6976869   -0.0376476    -0.7023453   -0.2160754    -0.0564537    0.2960714 
   2.216750009     0.1228041    0.2465535    -0.6922814    0.1110217    -0.7311617   -0.0634017     0.0116407    0.3009558 
   2.222500009     0.1652805    0.2228124    -0.6535621    0.2553537    -0.7267652    0.0900933     0.0783318    0.2911020 
   2.228250008     0.2050595    0.1948790    -0.5836598    0.3870974    -0.6910668    0.2380414     0.1390072    0.2677923 
   2.234000008     0.2434140    0.1613967    -0.4871479    0.4987997    -0.6262942    0.3750428     0.1911114    0.2343499 
   2.239750008     0.2799021    0.1193564    -0.3707193    0.5856642    -0.5346670    0.4958502     0.2341306    0.1940768 
   2.245500008     0.3112055    0.0657473    -0.2412626    0.6451582    -0.4196748    0.5949847     0.2685241    0.1494052 
   2.251250008     0.3310734    0.0002926    -0.1050168    0.6773844    -0.2865153    0.6672046     0.2945178    0.1008795 
   2.257000008     0.3335514   -0.0736663     0.0340962    0.6831520    -0.1418560    0.7091597     0.3116168    0.0490261 
   2.262750008     0.3147877   -0.1490976     0.1723507    0.6618898     0.0070083    0.7198519     0.3185784   -0.0044684 
   2.268500008     0.2748650   -0.2183015     0.3046249    0.6123942     0.1533867    0.6997081     0.3158056   -0.0570017 
   2.274250008     0.2171583   -0.2744301     0.4239051    0.5348555     0.2913486    0.6506908     0.3046179   -0.1067004 
   2.280000008     0.1472064   -0.3128375     0.5224306    0.4332864     0.4156964    0.5751760     0.2870478   -0.1537293 
   2.285750008     0.0710582   -0.3320002     0.5957237    0.3147150     0.5211447    0.4762326     0.2631741   -0.1995368 
   2.291500008    -0.0059022   -0.3318953     0.6418378    0.1864478     0.6035219    0.3588993     0.2307115   -0.2451815 
   2.297250008    -0.0791761   -0.3140345     0.6613992    0.0543855     0.6596683    0.2290632     0.1859287   -0.2881947 
   2.303000008    -0.1449111   -0.2804516     0.6556117   -0.0764865     0.6886384    0.0926147     0.1266652   -0.3231208 
   2.308750008    -0.2004718   -0.2337847     0.6257997   -0.2027642     0.6906486   -0.0451148     0.0549397   -0.3427216 
   2.314500008    -0.2433761   -0.1769537     0.5733736   -0.3209054     0.6666728   -0.1794120    -0.0233923   -0.3415524 
   2.320250008    -0.2719147   -0.1129881     0.4996861   -0.4271460     0.6181996   -0.3061143    -0.0999901   -0.3175946 
   2.326000008    -0.2847569   -0.0452785     0.4070755   -0.5179088     0.5473933   -0.4216011    -0.1665597   -0.2730592 
   2.331750008    -0.2812692    0.0220248     0.2986389   -0.5899290     0.4565100   -0.5228403    -0.2173319   -0.2133872 
   2.337500007    -0.2620455    0.0841365     0.1777061   -0.6408193     0.3472102   -0.6067566    -0.2492272   -0.1451771 
   2.343250007    -0.2298374    0.1361734     0.0472684   -0.6688266     0.2215767   -0.6697976    -0.2621567   -0.0751274 
   2.349000007    -0.1896484    0.1749252    -0.0893502   -0.6713574     0.0823675   -0.7080068    -0.2575685   -0.0087341 
   2.354750007    -0.1478187    0.2004633    -0.2274754   -0.6454536    -0.0657248   -0.7172537    -0.2387848    0.0491798 
   2.360500007    -0.1094276    0.2163108    -0.3605111   -0.5896069    -0.2162096   -0.6941397    -0.2106603    0.0956835 
   2.366250007    -0.0758592    0.2282915    -0.4807819   -0.5040998    -0.3609219   -0.6371465    -0.1791440    0.1297295 
   2.372000007    -0.0438489    0.2413787    -0.5802833   -0.3918488    -0.4907270   -0.5477549    -0.1499424    0.1539273 
   2.377750007    -0.0067258    0.2561950    -0.6519367   -0.2573723    -0.5978031   -0.4297197    -0.1251784    0.1742854 
   2.383500007     0.0390014    0.2673769    -0.6891107   -0.1113203    -0.6733172   -0.2918329    -0.1042672    0.1965885 
   2.389250007     0.0967841    0.2671106    -0.6905777    0.0403039    -0.7152069   -0.1394102    -0.0772102    0.2244915 
   2.395000007     0.1595921    0.2476641    -0.6581870    0.1848353    -0.7210516    0.0165704    -0.0371548    0.2539514 
   2.400750007     0.2129918    0.2080308    -0.6012648    0.3081338    -0.6943603    0.1602759     0.0134787    0.2752742 
   2.406500007     0.2529451    0.1532510    -0.5251008    0.4167613    -0.6428359    0.2929434     0.0752764    0.2794727 
   2.412250007     0.2741341    0.0906830    -0.4321263    0.5106411    -0.5703899    0.4127427     0.1375761    0.2614334 
   2.418000007     0.2777729    0.0297482    -0.3220257    0.5879323    -0.4773060    0.5186697     0.1889744    0.2244778 
   2.423750007     0.2702612   -0.0267636    -0.1960860    0.6434339    -0.3634000    0.6067059     0.2224291    0.1777549 
   2.429500007     0.2538925   -0.0796789    -0.0583001    0.6715321    -0.2307532    0.6708254     0.2393988    0.1318704 
   2.435250007     0.2294044   -0.1310476     0.0832939    0.6685861    -0.0849062    0.7047378     0.2474480    0.0921102 
   2.441000007     0.1925411   -0.1814524     0.2201861    0.6340573     0.0651810    0.7048977     0.2551018    0.0558553 
   2.446750007     0.1394846   -0.2240743     0.3444924    0.5710307     0.2100498    0.6713022     0.2638929    0.0150361 
   2.452500006     0.0729870   -0.2499346     0.4501813    0.4849363     0.3410557    0.6086447     0.2670002   -0.0363761 
   2.458250006     0.0015602   -0.2528883     0.5352165    0.3823214     0.4538792    0.5235137     0.2545746   -0.0963930 
   2.464000006    -0.0629855   -0.2329938     0.5992369    0.2673664     0.5468997    0.4208607     0.2200643   -0.1557959 
   2.469750006    -0.1114444   -0.1983538     0.6414651    0.1419925     0.6198975    0.3034219     0.1647370   -0.2026566 
   2.475500006    -0.1418605   -0.1604620     0.6590141    0.0084014     0.6708054    0.1719107     0.0969325   -0.2287708 
   2.481250006    -0.1606630   -0.1281011     0.6483057   -0.1285090     0.6947187    0.0296451     0.0276281   -0.2322951 
   2.487000006    -0.1775402   -0.1022397     0.6074485   -0.2611220     0.6870394   -0.1170749    -0.0352626   -0.2172397 
   2.492750006    -0.1980816   -0.0765932     0.5380294   -0.3819010     0.6466698   -0.2594227    -0.0886309   -0.1896014 
   2.498500006    -0.2207236   -0.0437645     0.4455694   -0.4842549     0.5766585   -0.3890323    -0.1325697   -0.1529380 
   2.504250006    -0.2248179   -0.0286031     0.4362197   -0.5525936     0.4360445   -0.5639189    -0.1805213   -0.1657667 
   2.510000006    -0.2287186    0.0235688     0.3105881   -0.6287202     0.3094229   -0.6401201    -0.2047554   -0.1134492 
   2.515750006    -0.2174317    0.0753951     0.1740819   -0.6776744     0.1711167   -0.6892592    -0.2133117   -0.0568716 
   2.521500006    -0.1956517    0.1248815     0.0248433   -0.7062194     0.0216957   -0.7128494    -0.2036054   -0.0040534 
   2.527250006    -0.1665281    0.1621843    -0.1197464   -0.6924517    -0.1321637   -0.7032005    -0.1808420    0.0357897 
   2.533000006    -0.1335158    0.1982296    -0.2663603   -0.6514823    -0.2809817   -0.6571491    -0.1551560    0.0590157 
   2.538750006    -0.0912040    0.2358671    -0.4050552   -0.5769128    -0.4216100   -0.5767177    -0.1382451    0.0717741 
   2.544500006    -0.0339467    0.2685052    -0.5215448   -0.4684554    -0.5366628   -0.4607464    -0.1324938    0.0872393 
   2.550250006     0.0391975    0.2855814    -0.6044498   -0.3339526    -0.6190892   -0.3205877    -0.1284484    0.1185846 
   2.556000006     0.1225446    0.2774509    -0.6475999   -0.1894166    -0.6516201   -0.1778689    -0.1102139    0.1601258 
   2.561750006     0.2008235    0.2387380    -0.6576681   -0.0484620    -0.6588603   -0.0387260    -0.0657821    0.2031836 
   2.567500005     0.2593650    0.1753503    -0.6437292    0.0851954    -0.6411402    0.0900070     0.0007122    0.2264677 
   2.573250005     0.2892632    0.1018108    -0.6077994    0.2139304    -0.6075886    0.2202664     0.0785176    0.2214107 
   2.579000005     0.2943907    0.0344781    -0.5451953    0.3368624    -0.5450230    0.3438216     0.1464095    0.1854692 
   2.584750005     0.2879116   -0.0177709    -0.4518308    0.4493049    -0.4505946    0.4527075     0.1955428    0.1308883 
   2.590500005     0.2845146   -0.0605861    -0.3292887    0.5305929    -0.3283535    0.5350752     0.2235908    0.0693773 
   2.596250005     0.2873870   -0.1074734    -0.1914895    0.5741274    -0.1900432    0.5794752     0.2380659    0.0061469 
   2.602000005     0.2868828   -0.1697475    -0.0543011    0.5773756    -0.0545825    0.5809730     0.2402659   -0.0592472 
   2.607750005     0.2671903   -0.2449758     0.0672947    0.5458631     0.0691938    0.5514560     0.2281014   -0.1331227 
   2.613500005     0.2200073   -0.3226065     0.1673675    0.4920991     0.1711151    0.4978627     0.1908335   -0.2108240 
   2.619250005     0.1438755   -0.3880059     0.2464108    0.4252922     0.2512782    0.4299551     0.1205843   -0.2810946 
   2.625000005     0.0459644   -0.4316677     0.3054599    0.3512109     0.3106927    0.3542787     0.0199103   -0.3250283 
   2.630750005    -0.0662608   -0.4474839     0.3446347    0.2735360     0.3505988    0.2745756    -0.0974722   -0.3284463 
   2.636500005    -0.1830009   -0.4308054     0.3642725    0.1969832     0.3689194    0.1964142    -0.2122623   -0.2860896 
   2.642250005    -0.2983077   -0.3799475     0.3680572    0.1268139     0.3708139    0.1251136    -0.3086084   -0.2023122 
   2.648000005    -0.3997272   -0.2920831     0.3581890    0.0682925     0.3602242    0.0673383    -0.3690238   -0.0868011 
   2.653750005    -0.4722470   -0.1728424     0.3450628    0.0237060     0.3463809    0.0244687    -0.3847600    0.0449611 
   2.659500005    -0.5058593   -0.0329943     0.3358751   -0.0093378     0.3388999   -0.0095305    -0.3535298    0.1751016 
   2.665250005    -0.4925684    0.1118941     0.3365826   -0.0409907     0.3394901   -0.0402360    -0.2780124    0.2860101 
   2.671000005    -0.4364842    0.2467326     0.3454225   -0.0805825     0.3500116   -0.0807698    -0.1701752    0.3637829 
   2.676750005    -0.3427024    0.3539946     0.3529339   -0.1348530     0.3578575   -0.1359672    -0.0460097    0.3992558 
   2.682500004    -0.2237799    0.4297276     0.3480042   -0.2054558     0.3531401   -0.2086304     0.0801631    0.3951619 
   2.688250004    -0.0906528    0.4660847     0.3211659   -0.2833398     0.3247431   -0.2878075     0.1968210    0.3544515 
   2.694000004     0.0410038    0.4598751     0.2703120   -0.3514452     0.2725444   -0.3594133     0.2930461    0.2828301 
   2.699750004     0.1622498    0.4184736     0.2023647   -0.4110080     0.2027959   -0.4177916     0.3687153    0.1865878 
   2.705500004     0.2580712    0.3475874     0.1238625   -0.4541253     0.1220719   -0.4590474     0.4113234    0.0695197 
   2.711250004     0.3293601    0.2599482     0.0359290   -0.4838906     0.0311488   -0.4882772     0.4146872   -0.0566123 
   2.717000004     0.3696411    0.1662477    -0.0607825   -0.4973437    -0.0651296   -0.4981855     0.3763295   -0.1762704 
   2.722750004     0.3893856    0.0737917    -0.1643052   -0.4899972    -0.1656313   -0.4895009     0.3025604   -0.2727277 
   2.728500004     0.3911317   -0.0164306    -0.2681376   -0.4583474    -0.2649954   -0.4590914     0.2075796   -0.3347263 
   2.734250004     0.3773462   -0.1075741    -0.3652131   -0.4027523    -0.3618114   -0.4076756     0.1082481   -0.3627173 
   2.740000004     0.3420207   -0.1986134    -0.4500311   -0.3259041    -0.4480702   -0.3333936     0.0166148   -0.3633754 
   2.745750004     0.2791808   -0.2757847    -0.5129111   -0.2331556    -0.5161882   -0.2396906    -0.0654038   -0.3480267 
   2.751500004     0.1946222   -0.3346422    -0.5610147   -0.1279150    -0.5633319   -0.1334320    -0.1410319   -0.3196684 
   2.757250004     0.0980394   -0.3583710    -0.5848334   -0.0176024    -0.5913033   -0.0187665    -0.2129046   -0.2754135 
   2.763000004     0.0036481   -0.3514986    -0.5939723    0.1031834    -0.6004642    0.1025088    -0.2736222   -0.2107263 
   2.768750004    -0.0733890   -0.3182042    -0.5793733    0.2340237    -0.5858629    0.2309065    -0.3117493   -0.1278996 
   2.774500004    -0.1248066   -0.2729693    -0.5304477    0.3638877    -0.5406123    0.3667722    -0.3188876   -0.0382901 
   2.780250004    -0.1595444   -0.2307579    -0.4471036    0.4866681    -0.4572112    0.4913701    -0.2941748    0.0401018 
   2.786000004    -0.1859620   -0.1935808    -0.3311911    0.5846993    -0.3403734    0.5924758    -0.2496690    0.0945739 
   2.791750004    -0.2129695   -0.1554422    -0.1924709    0.6514566    -0.1975470    0.6644224    -0.2036663    0.1202916 
   2.797500003    -0.2337234   -0.1111786    -0.0405116    0.6823205    -0.0406718    0.6972473    -0.1728218    0.1283345 
   2.803250003    -0.2443846   -0.0637803     0.1156231    0.6758624     0.1183179    0.6895957    -0.1609700    0.1371072 
   2.809000003    -0.2459574   -0.0181471     0.2651399    0.6313336     0.2720775    0.6443194    -0.1566457    0.1605369 
   2.814750003    -0.2434527    0.0228169     0.3950759    0.5520012     0.4071198    0.5635759    -0.1440988    0.1976670 
   2.820500003    -0.2416792    0.0629013     0.5035799    0.4462451     0.5180348    0.4547709    -0.1131969    0.2425788 
   2.826250003    -0.2392070    0.1113842     0.5805558    0.3206713     0.5965219    0.3259286    -0.0638146    0.2801589 
   2.832000003    -0.2257704    0.1740764     0.6270489    0.1842135     0.6474718    0.1832908     0.0021958    0.3066407 
   2.837750003    -0.1886194    0.2398484     0.6379226    0.0474796     0.6521324    0.0453908     0.0749279    0.3117171 
   2.843500003    -0.1232905    0.2992562     0.6205801   -0.0822221     0.6299775   -0.0840579     0.1506195    0.2972213 
   2.849250003    -0.0332222    0.3358025     0.5768279   -0.1931720     0.5923510   -0.2073301     0.2269680    0.2644823 
   2.855000003     0.0686258    0.3387383     0.5212448   -0.2915224     0.5333742   -0.3032726     0.2916842    0.2107818 
   2.860750003     0.1655042    0.3046488     0.4574948   -0.3737863     0.4665962   -0.3882995     0.3451363    0.1373972 
   2.866500003     0.2439277    0.2403800     0.3880733   -0.4474546     0.3924037   -0.4659706     0.3776720    0.0461034 
   2.872250003     0.2922910    0.1583887     0.3096593   -0.5179392     0.3074556   -0.5369093     0.3807476   -0.0564414 
   2.878000003     0.3103481    0.0730088     0.2126525   -0.5818767     0.2059969   -0.5977271     0.3466963   -0.1547335 
   2.883750003     0.3036056   -0.0027189     0.0946352   -0.6321343     0.0855100   -0.6424087     0.2821197   -0.2332712 
   2.889500003     0.2831095   -0.0649723    -0.0404815   -0.6523725    -0.0505069   -0.6621755     0.2009484   -0.2777690 
   2.895250003     0.2573867   -0.1171585    -0.1826482   -0.6402411    -0.1957916   -0.6494346     0.1231735   -0.2917412 
   2.901000003     0.2259780   -0.1633912    -0.3181763   -0.5919791    -0.3341450   -0.5986717     0.0614980   -0.2849365 
   2.906750003     0.1858033   -0.2054499    -0.4409263   -0.5145811    -0.4577448   -0.5164229     0.0145632   -0.2746225 
   2.912500002     0.1342023   -0.2380757    -0.5431914   -0.4123490    -0.5580876   -0.4099692    -0.0277190   -0.2662090 
   2.918250002     0.0750615   -0.2531995    -0.6209781   -0.2902403    -0.6353415   -0.2861131    -0.0740823   -0.2547082 
   2.924000002     0.0188016   -0.2473800    -0.6716954   -0.1541274    -0.6864192   -0.1474957    -0.1219879   -0.2305217 
   2.929750002    -0.0244542   -0.2275242    -0.6946936   -0.0058844    -0.7100306    0.0037774    -0.1618411   -0.1905675 
   2.935500002    -0.0503614   -0.2048856    -0.6824182    0.1459927    -0.6967310    0.1612229    -0.1819914   -0.1413144 
   2.941250002    -0.0657123   -0.1917041    -0.6345025    0.2917553    -0.6428205    0.3085388    -0.1792175   -0.0983973 
   2.947000002    -0.0841069   -0.1895285    -0.5544431    0.4200645    -0.5593221    0.4418975    -0.1657745   -0.0756406 
