! 1/7/2014 4:10:04 PM
! C:\USERS\VECTORSTARUSER\DESKTOP\GABRIEL SMS\0-GRAUS.S2P
! CHANNEL.1
! TR.MEASUREMENT
! RAW.DATA
# GHZ S RI R 50.0
! FREQ.GHZ         S11RE         S11IM         S21RE         S21IM         S12RE         S12IM         S22RE         S22IM         
!; PortSelection: Port_12
   1.800000000    -0.2815988   -0.2882299     0.3035330   -0.6064523     0.4611781   -0.5256760    -0.3866769   -0.0541888 
   1.807000000    -0.3801397   -0.2135912     0.1449111   -0.6473061     0.3260182   -0.6259987    -0.3685651    0.0446028 
   1.814000000    -0.4507802   -0.0896552    -0.0074686   -0.6530701     0.1601207   -0.6937091    -0.3380392    0.1100766 
   1.821000000    -0.4637517    0.0589882    -0.1540813   -0.6322753    -0.0239101   -0.7096449    -0.3226466    0.1630707 
   1.828000000    -0.4164562    0.1938351    -0.2976558   -0.5840302    -0.1991900   -0.6695720    -0.3119292    0.2359509 
   1.835000000    -0.3329873    0.2879010    -0.4345795   -0.5014870    -0.3458927   -0.5907554    -0.2702553    0.3294690 
   1.842000000    -0.2459127    0.3409705    -0.5509199   -0.3801048    -0.4644858   -0.4908941    -0.1808019    0.4120182 
   1.849000000    -0.1711627    0.3767627    -0.6287451   -0.2265475    -0.5628465   -0.3753984    -0.0588173    0.4514884 
   1.856000000    -0.0942957    0.4145265    -0.6575894   -0.0615092    -0.6422646   -0.2394330     0.0627826    0.4378302 
   1.863000000     0.0061148    0.4440358    -0.6444749    0.0952740    -0.6933646   -0.0787450     0.1564392    0.3884147 
   1.870000000     0.1281479    0.4389302    -0.6027545    0.2386639    -0.7001408    0.1007534     0.2201888    0.3326939 
   1.877000000     0.2457703    0.3827305    -0.5368965    0.3726319    -0.6527713    0.2779472     0.2752627    0.2835401 
   1.884000000     0.3273839    0.2868255    -0.4420547    0.4971254    -0.5589162    0.4305344     0.3379653    0.2250757 
   1.891000000     0.3595850    0.1828701    -0.3119364    0.6035423    -0.4353520    0.5496880     0.3968311    0.1355000 
   1.898000000     0.3598373    0.1018330    -0.1464737    0.6750990    -0.2914477    0.6378407     0.4239470    0.0150533 
   1.905000000     0.3620994    0.0438732     0.0393483    0.6921717    -0.1295956    0.6945791     0.4010686   -0.1117332 
   1.912000000     0.3791018   -0.0206220     0.2176413    0.6496769     0.0472803    0.7125830     0.3352624   -0.2139877 
   1.919000000     0.3880800   -0.1133091     0.3667181    0.5641199     0.2299839    0.6825587     0.2536855   -0.2787914 
   1.926000000     0.3588603   -0.2232949     0.4844882    0.4546634     0.4008106    0.6000041     0.1789386   -0.3201706 
   1.933000000     0.2844253   -0.3194183     0.5770460    0.3272822     0.5381884    0.4708334     0.1064999   -0.3593395 
   1.940000000     0.1839270   -0.3783152     0.6435407    0.1792871     0.6284121    0.3139373     0.0150083   -0.3952430 
   1.947000000     0.0852667   -0.4010122     0.6735367    0.0118754     0.6731620    0.1507947    -0.1004412   -0.4033742 
   1.954000000    -0.0011682   -0.4082799     0.6546707   -0.1627285     0.6827721   -0.0086353    -0.2183753   -0.3648237 
   1.961000000    -0.0900964   -0.4134069     0.5849492   -0.3230542     0.6630508   -0.1657748    -0.3089729   -0.2845865 
   1.968000000    -0.1978437   -0.4029766     0.4774423   -0.4511844     0.6104863   -0.3209318    -0.3560120   -0.1890782 
   1.975000000    -0.3159474   -0.3516225     0.3509938   -0.5429934     0.5171354   -0.4668342    -0.3690170   -0.1061627 
   1.982000000    -0.4148834   -0.2514072     0.2142671   -0.6054785     0.3821754   -0.5842922    -0.3744375   -0.0421002 
   1.989000000    -0.4675846   -0.1182813     0.0685883   -0.6408105     0.2180536   -0.6568318    -0.3868820    0.0226446 
   1.996000000    -0.4657435    0.0168070    -0.0881409   -0.6453012     0.0491840   -0.6806083    -0.3931375    0.1085623 
   2.003000000    -0.4233062    0.1279018    -0.2462676   -0.6101733    -0.1108393   -0.6655418    -0.3678598    0.2097208 
   2.010000000    -0.3649096    0.2083705    -0.3941741   -0.5311175    -0.2593055   -0.6220138    -0.3010402    0.3029612 
   2.017000000    -0.3057128    0.2712810    -0.5139269   -0.4138729    -0.3999366   -0.5506330    -0.2042634    0.3653658 
   2.024000000    -0.2407148    0.3303272    -0.5950832   -0.2726392    -0.5280344   -0.4451248    -0.0985289    0.3904206 
   2.031000000    -0.1565518    0.3816258    -0.6386796   -0.1227506    -0.6295214   -0.3039919     0.0000178    0.3870412 
   2.038000000    -0.0517782    0.4083583    -0.6510912    0.0300278    -0.6895657   -0.1363488     0.0903867    0.3682343 
   2.045000000     0.0575094    0.3978504    -0.6326612    0.1852842    -0.7005264    0.0410604     0.1803262    0.3349172 
   2.052000000     0.1501469    0.3543257    -0.5767569    0.3400176    -0.6658373    0.2110764     0.2696113    0.2770935 
   2.059000000     0.2156774    0.2972273    -0.4776344    0.4811931    -0.5944665    0.3640638     0.3436652    0.1876227 
   2.066000000     0.2638789    0.2433822    -0.3383978    0.5911270    -0.4924120    0.4969955     0.3835706    0.0748826 
   2.073000000     0.3120987    0.1907765    -0.1741136    0.6551461    -0.3605109    0.6063721     0.3815047   -0.0401180 
   2.080000000     0.3632190    0.1223549    -0.0048418    0.6712685    -0.2008418    0.6829423     0.3463238   -0.1368693 
   2.087000000     0.4002131    0.0281826     0.1557498    0.6475899    -0.0215566    0.7154791     0.2965094   -0.2096182 
   2.094000000     0.4037235   -0.0820590     0.3051005    0.5922433     0.1613031    0.6970218     0.2439340   -0.2676526 
   2.101000000     0.3687892   -0.1864639     0.4425910    0.5054697     0.3301401    0.6297451     0.1847043   -0.3206882 
   2.108000000     0.3073751   -0.2684112     0.5603603    0.3832245     0.4717427    0.5244442     0.1089475   -0.3647141 
   2.115000000     0.2365997   -0.3261531     0.6433461    0.2279229     0.5813681    0.3925691     0.0174304   -0.3857006 
   2.122000000     0.1637206   -0.3708138     0.6783381    0.0536494     0.6584378    0.2408236    -0.0760632   -0.3749351 
   2.129000000     0.0806087   -0.4084398     0.6624634   -0.1192241     0.6994818    0.0728153    -0.1556898   -0.3371013 
   2.136000000    -0.0217247   -0.4296115     0.6045051   -0.2743691     0.6974595   -0.1037247    -0.2155681   -0.2864296 
   2.143000000    -0.1382930   -0.4163714     0.5165488   -0.4055441     0.6480596   -0.2748816    -0.2622025   -0.2328412 
   2.150000000    -0.2490752   -0.3592395     0.4060339   -0.5135270     0.5558987   -0.4242365    -0.3043411   -0.1731727 
   2.157000000    -0.3305751   -0.2647768     0.2749097   -0.5974002     0.4332480   -0.5414329    -0.3396420   -0.0974874 
   2.164000000    -0.3692702   -0.1535507     0.1244381   -0.6514197     0.2922840   -0.6251348    -0.3544108   -0.0033099 
   2.171000000    -0.3676490   -0.0487490    -0.0389854   -0.6681786     0.1388849   -0.6783996    -0.3362184    0.0984033 
   2.178000000    -0.3405084    0.0359854    -0.2053975   -0.6424551    -0.0259319   -0.6999850    -0.2833402    0.1900091 
   2.185000000    -0.3040257    0.1010752    -0.3616013   -0.5735265    -0.1992183   -0.6827517    -0.2054085    0.2580430 
   2.192000000    -0.2656148    0.1543511    -0.4953563   -0.4663866    -0.3703066   -0.6186336    -0.1157393    0.2981315 
   2.199000000    -0.2237275    0.2024237    -0.5981734   -0.3293982    -0.5212564   -0.5063350    -0.0240889    0.3132110 
   2.206000000    -0.1747413    0.2451855    -0.6644437   -0.1700285    -0.6347660   -0.3546120     0.0654132    0.3068039 
   2.213000000    -0.1179230    0.2801995    -0.6889014    0.0033974    -0.7010140   -0.1798030     0.1502981    0.2797917 
   2.220000000    -0.0543457    0.3059507    -0.6664686    0.1792069    -0.7191136    0.0017007     0.2253685    0.2316176 
   2.227000000     0.0166384    0.3218961    -0.5972404    0.3430261    -0.6929438    0.1785127     0.2828214    0.1650570 
   2.234000000     0.0963485    0.3239241    -0.4870492    0.4798698    -0.6265815    0.3427145     0.3175009    0.0879766 
   2.241000000     0.1825865    0.3049337    -0.3489580    0.5802651    -0.5223228    0.4867209     0.3293786    0.0092392 
   2.248000000     0.2667990    0.2579805    -0.1958224    0.6420041    -0.3849830    0.6007884     0.3216182   -0.0650050 
   2.255000000     0.3356042    0.1827058    -0.0367057    0.6681584    -0.2235930    0.6762667     0.2972330   -0.1319585 
   2.262000000     0.3769436    0.0872588     0.1253779    0.6604651    -0.0497421    0.7089068     0.2581617   -0.1891324 
   2.269000000     0.3849216   -0.0156527     0.2860771    0.6147509     0.1256428    0.6989830     0.2072984   -0.2324012 
   2.276000000     0.3608621   -0.1126095     0.4344350    0.5265830     0.2938223    0.6478227     0.1507463   -0.2593206 
   2.283000000     0.3115217   -0.1939235     0.5552795    0.3990120     0.4470252    0.5563611     0.0946755   -0.2726672 
   2.290000000     0.2451653   -0.2546450     0.6365849    0.2438099     0.5738261    0.4269405     0.0400240   -0.2778305 
   2.297000000     0.1693368   -0.2936450     0.6735486    0.0754689     0.6628704    0.2673714    -0.0179223   -0.2770435 
   2.304000000     0.0899971   -0.3110906     0.6666058   -0.0930892     0.7058098    0.0911193    -0.0834008   -0.2644617 
   2.311000000     0.0122606   -0.3084548     0.6200909   -0.2520802     0.7016735   -0.0870914    -0.1530897   -0.2306436 
   2.318000000    -0.0592829   -0.2877283     0.5381083   -0.3942333     0.6542231   -0.2549511    -0.2154054   -0.1699055 
   2.325000000    -0.1202860   -0.2516619     0.4254021   -0.5126070     0.5704133   -0.4037806    -0.2560631   -0.0859069 
   2.332000000    -0.1671827   -0.2048419     0.2877506   -0.6005170     0.4560683   -0.5291290    -0.2655705    0.0098755 
   2.339000000    -0.1980905   -0.1538470     0.1327022   -0.6533194     0.3154368   -0.6258151    -0.2419792    0.1033908 
   2.346000000    -0.2164537   -0.1056237    -0.0317105   -0.6676679     0.1532226   -0.6873173    -0.1891387    0.1821397 
   2.353000000    -0.2293523   -0.0626705    -0.1960814   -0.6410104    -0.0219863   -0.7070412    -0.1150820    0.2361578 
   2.360000000    -0.2437695   -0.0204411    -0.3495707   -0.5739500    -0.1982601   -0.6814075    -0.0313142    0.2596959 
   2.367000000    -0.2594942    0.0303895    -0.4822760   -0.4713372    -0.3626407   -0.6119971     0.0479634    0.2521913 
   2.374000000    -0.2663300    0.0968827    -0.5871248   -0.3383067    -0.5054360   -0.5042255     0.1100136    0.2210067 
   2.381000000    -0.2496024    0.1750627    -0.6575598   -0.1786740    -0.6194630   -0.3622308     0.1497110    0.1797100 
   2.388000000    -0.2033436    0.2477486    -0.6830717   -0.0044573    -0.6938099   -0.1944442     0.1703925    0.1434437 
   2.395000000    -0.1288431    0.3007416    -0.6591232    0.1750042    -0.7208781   -0.0055901     0.1898739    0.1134047 
   2.402000000    -0.0486017    0.3208604    -0.5908344    0.3326466    -0.6948348    0.1775054     0.2105767    0.0830602 
   2.409000000     0.0249018    0.3165121    -0.4867260    0.4666760    -0.6234170    0.3448780     0.2305301    0.0367239 
   2.416000000     0.0878484    0.2975362    -0.3536476    0.5711427    -0.5147774    0.4870943     0.2323851   -0.0263379 
   2.423000000     0.1422935    0.2724061    -0.1993938    0.6398761    -0.3764883    0.5982075     0.2034800   -0.0898840 
   2.430000000     0.1958591    0.2370781    -0.0330207    0.6689846    -0.2155754    0.6736432     0.1487840   -0.1332391 
   2.437000000     0.2412463    0.1844647     0.1365276    0.6570445    -0.0384110    0.7088662     0.0872649   -0.1475398 
   2.444000000     0.2682723    0.1179667     0.3007295    0.6024163     0.1466928    0.6977292     0.0363353   -0.1412750 
   2.451000000     0.2695066    0.0508936     0.4479095    0.5038311     0.3259585    0.6346256    -0.0026092   -0.1309728 
   2.458000000     0.2530828   -0.0012886     0.5632088    0.3660799     0.4806282    0.5222856    -0.0422427   -0.1231747 
   2.465000000     0.2362185   -0.0374847     0.6343127    0.2018317     0.5948027    0.3723012    -0.0924993   -0.1071439 
   2.472000000     0.2290273   -0.0716373     0.6551518    0.0269162     0.6609376    0.2002200    -0.1464649   -0.0672005 
   2.479000000     0.2235701   -0.1187163     0.6272606   -0.1414973     0.6781294    0.0219843    -0.1852577   -0.0000918 
   2.486000000     0.2018240   -0.1796157     0.5584043   -0.2899734     0.6493111   -0.1493100    -0.1933705    0.0824079 
   2.493000000     0.1528186   -0.2399220     0.4589069   -0.4119287     0.5802630   -0.3032899    -0.1689285    0.1623321 
   2.500000000     0.1007677   -0.3407362     0.4547921   -0.4844049     0.4502579   -0.4946164    -0.1590289    0.1828097 
   2.507000000     0.0188088   -0.3580470     0.3117310   -0.5758128     0.3077094   -0.5845375    -0.0851044    0.2359379 
   2.514000000    -0.0649965   -0.3571199     0.1504816   -0.6292575     0.1506249   -0.6339867     0.0088180    0.2633285 
   2.521000000    -0.1498301   -0.3416366    -0.0147311   -0.6381213    -0.0140105   -0.6454892     0.1155065    0.2536932 
   2.528000000    -0.2283272   -0.3048689    -0.1622167   -0.6008545    -0.1733427   -0.6159981     0.2161027    0.1981574 
   2.535000000    -0.3077574   -0.2442377    -0.3028341   -0.5402175    -0.3205136   -0.5515749     0.2856981    0.1015448 
   2.542000000    -0.3696634   -0.1548994    -0.4329618   -0.4493800    -0.4562892   -0.4497974     0.3059875   -0.0141897 
   2.549000000    -0.3979195   -0.0500950    -0.5451063   -0.3171715    -0.5687709   -0.3035576     0.2807543   -0.1233384 
   2.556000000    -0.3947774    0.0522235    -0.6091549   -0.1445154    -0.6195240   -0.1245891     0.2257031   -0.2004754 
   2.563000000    -0.3735845    0.1436831    -0.6067314    0.0434058    -0.6051221    0.0626706     0.1633912   -0.2616186 
   2.570000000    -0.3436012    0.2341932    -0.5367409    0.2085791    -0.5268525    0.2180937     0.0903211   -0.3134408 
   2.577000000    -0.2939591    0.3350983    -0.4233210    0.3258077    -0.4145098    0.3294128    -0.0100417   -0.3559223 
   2.584000000    -0.2015209    0.4365996    -0.2968532    0.3903045    -0.2934630    0.3870549    -0.1365132   -0.3614829 
   2.591000000    -0.0626385    0.5102068    -0.1783649    0.4120555    -0.1811595    0.4106062    -0.2692147   -0.3132772 
   2.598000000     0.1065462    0.5297792    -0.0733692    0.4083380    -0.0788084    0.4128400    -0.3815034   -0.2106290 
   2.605000000     0.2788674    0.4866858     0.0212879    0.3839124     0.0173838    0.3935084    -0.4486936   -0.0682539 
   2.612000000     0.4237699    0.3871731     0.0965425    0.3351667     0.1004152    0.3472612    -0.4611165    0.0930105 
   2.619000000     0.5326511    0.2463376     0.1444798    0.2737472     0.1541800    0.2816240    -0.4144593    0.2561600 
   2.626000000     0.5949413    0.0759674     0.1618564    0.2184273     0.1724001    0.2198325    -0.3075497    0.3976294 
   2.633000000     0.6005103   -0.1090003     0.1632493    0.1839609     0.1710059    0.1807084    -0.1488577    0.4913933 
   2.640000000     0.5448024   -0.2859987     0.1670395    0.1699602     0.1711698    0.1647306     0.0367592    0.5185985 
   2.647000000     0.4341222   -0.4382745     0.1863908    0.1658542     0.1858831    0.1614325     0.2171802    0.4712792 
   2.654000000     0.2821960   -0.5438648     0.2236479    0.1569259     0.2198653    0.1564761     0.3640924    0.3631892 
   2.661000000     0.1077266   -0.5951082     0.2710914    0.1305016     0.2695121    0.1348232     0.4586406    0.2140342 
   2.668000000    -0.0706925   -0.5882640     0.3162741    0.0829008     0.3197086    0.0896996     0.4917581    0.0480182 
   2.675000000    -0.2358015   -0.5269997     0.3509646    0.0199312     0.3606836    0.0240938     0.4655058   -0.1119943 
   2.682000000    -0.3686899   -0.4175884     0.3755494   -0.0552223     0.3881634   -0.0573086     0.3905367   -0.2462236 
   2.689000000    -0.4543098   -0.2755762     0.3896950   -0.1450295     0.3993322   -0.1545351     0.2815079   -0.3391062 
   2.696000000    -0.4836028   -0.1243408     0.3820158   -0.2528185     0.3854905   -0.2688810     0.1619180   -0.3828717 
   2.703000000    -0.4662744    0.0139008     0.3338002   -0.3809126     0.3278529   -0.3944802     0.0507605   -0.3927475 
   2.710000000    -0.4194423    0.1301344     0.2247789   -0.4994572     0.2130091   -0.5051572    -0.0477610   -0.3833549 
   2.717000000    -0.3531117    0.2259764     0.0655735   -0.5669522     0.0570735   -0.5634459    -0.1464767   -0.3596616 
   2.724000000    -0.2663136    0.3055804    -0.1032019   -0.5669800    -0.1024705   -0.5614454    -0.2467600   -0.3067165 
   2.731000000    -0.1558744    0.3563248    -0.2506430   -0.5177634    -0.2424172   -0.5182670    -0.3295419   -0.2157398 
   2.738000000    -0.0345495    0.3640108    -0.3717805   -0.4419730    -0.3660014   -0.4507853    -0.3699182   -0.0994593 
   2.745000000     0.0710752    0.3256416    -0.4775867   -0.3450150    -0.4784210   -0.3565559    -0.3654982    0.0151078 
   2.752000000     0.1402489    0.2624541    -0.5658255   -0.2203674    -0.5715640   -0.2299508    -0.3304679    0.1094254 
   2.759000000     0.1706947    0.2006248    -0.6153608   -0.0697360    -0.6307698   -0.0700503    -0.2823470    0.1868707 
   2.766000000     0.1917629    0.1593705    -0.6259184    0.1048888    -0.6378907    0.1082984    -0.2219992    0.2564259 
   2.773000000     0.2197427    0.1251781    -0.5759361    0.2739046    -0.5864437    0.2825276    -0.1380780    0.3163099 
   2.780000000     0.2542363    0.0765969    -0.4797276    0.4133635    -0.4859757    0.4233099    -0.0276607    0.3468769 
   2.787000000     0.2742090    0.0084251    -0.3582185    0.5137468    -0.3615838    0.5233337     0.0950689    0.3290583 
   2.794000000     0.2695592   -0.0675016    -0.2255677    0.5830970    -0.2252747    0.5947925     0.1975187    0.2572679 
   2.801000000     0.2435966   -0.1360908    -0.0781909    0.6280963    -0.0779455    0.6380892     0.2516038    0.1526244 
   2.808000000     0.2026321   -0.1963062     0.0817999    0.6356921     0.0836671    0.6487870     0.2512541    0.0504309 
   2.815000000     0.1441050   -0.2510053     0.2411411    0.5991769     0.2491989    0.6145947     0.2130137   -0.0231965 
   2.822000000     0.0623445   -0.2875687     0.3878857    0.5211087     0.4022103    0.5355916     0.1646279   -0.0636135 
   2.829000000    -0.0373198   -0.2905570     0.5077753    0.4088004     0.5283512    0.4187836     0.1217066   -0.0763461 
   2.836000000    -0.1317221   -0.2468884     0.5950575    0.2720470     0.6201559    0.2742254     0.0929107   -0.0743686 
   2.843000000    -0.1947320   -0.1646734     0.6513873    0.1183989     0.6683069    0.1148288     0.0782817   -0.0678152 
   2.850000000    -0.2071132   -0.0680817     0.6659485   -0.0428311     0.6892585   -0.0626247     0.0763769   -0.0656060 
   2.857000000    -0.1713738    0.0085558     0.6431203   -0.2100702     0.6568404   -0.2287222     0.0826422   -0.0716172 
   2.864000000    -0.1141255    0.0429846     0.5802079   -0.3717998     0.5864378   -0.3932854     0.0908115   -0.0960523 
   2.871000000    -0.0687267    0.0369337     0.4748623   -0.5154494     0.4735486   -0.5389029     0.0830650   -0.1405520 
   2.878000000    -0.0545030    0.0172689     0.3260801   -0.6329939     0.3187451   -0.6515225     0.0394280   -0.1890409 
   2.885000000    -0.0628402    0.0113023     0.1431025   -0.7025930     0.1337819   -0.7153608    -0.0390667   -0.2093018 
   2.892000000    -0.0703966    0.0251556    -0.0487610   -0.7106250    -0.0610658   -0.7247992    -0.1227594   -0.1800681 
