! 1/7/2014 6:17:14 PM
! C:\USERS\VECTORSTARUSER\DESKTOP\GABRIEL SMS\60GRAUSORDEM2.S2P
! CHANNEL.1
! TR.MEASUREMENT
! RAW.DATA
# GHZ S RI R 50.0
! FREQ.GHZ         S11RE         S11IM         S21RE         S21IM         S12RE         S12IM         S22RE         S22IM         
!; PortSelection: Port_12
   2.050000010     0.1598591    0.3994686    -0.6348640    0.1387477    -0.6867089    0.0049538     0.0705307    0.4166710 
   2.058750010     0.2647407    0.3116159    -0.5728754    0.3317596    -0.6525889    0.2077713     0.2116682    0.3700349 
   2.067500010     0.3242027    0.2165503    -0.4446894    0.5017068    -0.5672892    0.3928359     0.3257132    0.2662625 
   2.076250010     0.3674693    0.1285325    -0.2622721    0.6171031    -0.4292661    0.5537109     0.3833915    0.1335910 
   2.085000010     0.4058641    0.0238784    -0.0579207    0.6625820    -0.2379629    0.6689124     0.3912200    0.0092475 
   2.093750010     0.4103851   -0.1085895     0.1423085    0.6467533    -0.0127125    0.7118353     0.3765352   -0.0983413 
   2.102500010     0.3573951   -0.2397629     0.3316272    0.5783682     0.2101900    0.6743727     0.3446019   -0.2052541 
   2.111250010     0.2610490   -0.3336861     0.4993200    0.4522865     0.4018147    0.5721465     0.2770476   -0.3092322 
   2.120000010     0.1545697   -0.3858140     0.6196706    0.2708532     0.5526037    0.4238072     0.1714410   -0.3828327 
   2.128750010     0.0482921   -0.4172397     0.6683614    0.0587053     0.6569817    0.2369244     0.0536077   -0.4091220 
   2.137500010    -0.0757492   -0.4302912     0.6423752   -0.1488717     0.6990278    0.0209776    -0.0521257   -0.4005902 
   2.146250010    -0.2193889   -0.3965647     0.5590632   -0.3276737     0.6651928   -0.1971426    -0.1485428   -0.3765317 
   2.155000010    -0.3483514   -0.2962220     0.4356493   -0.4718325     0.5638087   -0.3837495    -0.2491577   -0.3306941 
   2.163750009    -0.4207350   -0.1463712     0.2800450   -0.5777032     0.4212880   -0.5224048    -0.3429076   -0.2434266 
   2.172500009    -0.4210456    0.0108305     0.0993632   -0.6375610     0.2565251   -0.6176300    -0.3995051   -0.1162704 
   2.181250009    -0.3666584    0.1400468    -0.0947340   -0.6440392     0.0718211   -0.6740921    -0.4009380    0.0232736 
   2.190000009    -0.2858378    0.2312657    -0.2868192   -0.5928540    -0.1340221   -0.6806884    -0.3540215    0.1476577 
   2.198750009    -0.1953120    0.2921095    -0.4593183   -0.4843891    -0.3458809   -0.6184664    -0.2761347    0.2454526 
   2.207500009    -0.0988897    0.3274334    -0.5944744   -0.3232254    -0.5305730   -0.4817310    -0.1772093    0.3160150 
   2.216250009    -0.0011115    0.3370508    -0.6732360   -0.1210450    -0.6569253   -0.2887707    -0.0614189    0.3555161 
   2.225000009     0.0917936    0.3246289    -0.6798992    0.1000110    -0.7120619   -0.0688873     0.0606563    0.3563244 
   2.233750009     0.1800298    0.2951067    -0.6103678    0.3098414    -0.6970709    0.1541025     0.1724947    0.3183464 
   2.242500009     0.2671771    0.2450144    -0.4779782    0.4800534    -0.6148509    0.3616061     0.2621481    0.2524207 
   2.251250009     0.3461359    0.1630419    -0.3063256    0.5963617    -0.4711709    0.5330784     0.3266769    0.1690681 
   2.260000009     0.3963228    0.0466916    -0.1127418    0.6585246    -0.2816670    0.6490431     0.3646868    0.0741163 
   2.268750009     0.3983155   -0.0877639     0.0929012    0.6638013    -0.0688162    0.6993216     0.3730091   -0.0247992 
   2.277500009     0.3470262   -0.2148059     0.2940015    0.6023100     0.1463815    0.6833987     0.3546866   -0.1163716 
   2.286250009     0.2530908   -0.3122052     0.4632733    0.4773622     0.3462081    0.6031830     0.3188712   -0.1977277 
   2.295000009     0.1335413   -0.3685218     0.5798993    0.3090864     0.5102764    0.4653551     0.2670314   -0.2744321 
   2.303750009     0.0050324   -0.3803080     0.6377636    0.1205846     0.6213156    0.2866305     0.1883072   -0.3451720 
   2.312500009    -0.1177350   -0.3493280     0.6396834   -0.0711142     0.6719733    0.0882553     0.0769109   -0.3914349 
   2.321250009    -0.2214843   -0.2807690     0.5890697   -0.2534088     0.6637249   -0.1108827    -0.0543921   -0.3918548 
   2.330000009    -0.2949294   -0.1828658     0.4905060   -0.4134738     0.6030739   -0.2971407    -0.1792757   -0.3391230 
   2.338750009    -0.3282510   -0.0688035     0.3523932   -0.5404986     0.4961902   -0.4613889    -0.2737905   -0.2435681 
   2.347500009    -0.3187926    0.0418676     0.1821568   -0.6284932     0.3456600   -0.5953661    -0.3246021   -0.1244415 
   2.356250009    -0.2775919    0.1308577    -0.0143949   -0.6677317     0.1537486   -0.6860496    -0.3281755   -0.0027933 
   2.365000009    -0.2252097    0.1935802    -0.2251969   -0.6438464    -0.0686834   -0.7139199    -0.2921675    0.1006335 
   2.373750009    -0.1740924    0.2441947    -0.4247943   -0.5468606    -0.2966582   -0.6636335    -0.2357170    0.1727220 
   2.382500008    -0.1118353    0.2965296    -0.5827048   -0.3789360    -0.4978976   -0.5339192    -0.1793263    0.2206370 
   2.391250008    -0.0231913    0.3374180    -0.6666247   -0.1697129    -0.6372300   -0.3443359    -0.1300814    0.2641835 
   2.400000008     0.0918341    0.3400206    -0.6735894    0.0460385    -0.7015339   -0.1235974    -0.0628024    0.3125105 
   2.408750008     0.1987075    0.2924538    -0.6213248    0.2379449    -0.6951485    0.0901185     0.0327836    0.3412727 
   2.417500008     0.2735187    0.2074541    -0.5233052    0.4087566    -0.6351233    0.2887922     0.1427753    0.3230434 
   2.426250008     0.3129340    0.1123263    -0.3788106    0.5498977    -0.5228062    0.4669424     0.2283383    0.2603689 
   2.435000008     0.3255847    0.0125613    -0.1922089    0.6425361    -0.3566794    0.6086162     0.2739213    0.1842864 
   2.443750008     0.3101798   -0.0961406     0.0164685    0.6687218    -0.1488651    0.6894514     0.2991235    0.1170587 
   2.452500008     0.2486147   -0.2009098     0.2182956    0.6251545     0.0717865    0.6949402     0.3243841    0.0453405 
   2.461250008     0.1439097   -0.2689308     0.3901221    0.5264401     0.2732985    0.6335223     0.3339849   -0.0517768 
   2.470000008     0.0288125   -0.2798403     0.5255086    0.3893181     0.4434730    0.5241890     0.2976516   -0.1616630 
   2.478750008    -0.0601852   -0.2485481     0.6217557    0.2184377     0.5819541    0.3733142     0.2125022   -0.2485107 
   2.487500008    -0.1192532   -0.2088923     0.6642668    0.0194779     0.6747366    0.1814677     0.1035822   -0.2903852 
   2.496250008    -0.1709488   -0.1724141     0.6397191   -0.1858589     0.7020773   -0.0355391    -0.0044462   -0.2909949 
   2.505000008    -0.2114317   -0.1508773     0.6352052   -0.3198929     0.6411318   -0.3295059    -0.1036826   -0.3150277 
   2.513750008    -0.2470818   -0.0737220     0.5082794   -0.4985277     0.5118623   -0.5050731    -0.1902674   -0.2524632 
   2.522500008    -0.2512309    0.0127681     0.3379140   -0.6368864     0.3384355   -0.6435708    -0.2419396   -0.1616267 
   2.531250008    -0.2278896    0.0820818     0.1343573   -0.7103859     0.1251805   -0.7247359    -0.2432943   -0.0733503 
   2.540000008    -0.1979093    0.1518026    -0.1004413   -0.7279867    -0.1161981   -0.7352055    -0.2186476   -0.0225234 
   2.548750008    -0.1432288    0.2275557    -0.3358075   -0.6574447    -0.3553380   -0.6536482    -0.2158681    0.0013576 
   2.557500008    -0.0410559    0.2859787    -0.5185612   -0.5035293    -0.5254741   -0.4935370    -0.2373692    0.0445453 
   2.566250008     0.0925501    0.2825851    -0.6299479   -0.3160184    -0.6287417   -0.3095761    -0.2370770    0.1301999 
   2.575000008     0.2017400    0.2043832    -0.6883207   -0.1232518    -0.6908464   -0.1200233    -0.1792755    0.2172277 
   2.583750008     0.2410417    0.0938487    -0.7039694    0.0850268    -0.7077093    0.0866787    -0.0888332    0.2568378 
   2.592500008     0.2221010    0.0114337    -0.6521306    0.3022408    -0.6573597    0.3088700    -0.0112067    0.2559462 
   2.601250007     0.1995962   -0.0279162    -0.5240034    0.4976829    -0.5277166    0.5034744     0.0469869    0.2511629 
   2.610000007     0.1992992   -0.0636665    -0.3371775    0.6314179    -0.3380674    0.6419509     0.1194116    0.2509738 
   2.618750007     0.1918996   -0.1234765    -0.1246054    0.6944070    -0.1203364    0.7035372     0.2181077    0.2168455 
   2.627500007     0.1504813   -0.1842134     0.0853888    0.6931762     0.0921534    0.6972715     0.3016388    0.1211552 
   2.636250007     0.0906023   -0.2196725     0.2870883    0.6387348     0.2900265    0.6390697     0.3223180   -0.0085401 
   2.645000007     0.0318538   -0.2387055     0.4713451    0.5240349     0.4718998    0.5260593     0.2798494   -0.1219888 
   2.653750007    -0.0368901   -0.2529876     0.6099193    0.3506866     0.6108842    0.3569272     0.2070117   -0.1950130 
   2.662500007    -0.1273629   -0.2424934     0.6802266    0.1478658     0.6871559    0.1521594     0.1263952   -0.2340014 
   2.671250007    -0.2182749   -0.1803011     0.6880178   -0.0587514     0.6978837   -0.0588342     0.0427935   -0.2445562 
   2.680000007    -0.2659376   -0.0732859     0.6433991   -0.2555456     0.6518407   -0.2596534    -0.0329416   -0.2217582 
   2.688750007    -0.2497407    0.0378535     0.5485871   -0.4423935     0.5523208   -0.4501086    -0.0790716   -0.1740440 
   2.697500007    -0.1912332    0.1080535     0.3933593   -0.5984374     0.3926746   -0.6077455    -0.0846583   -0.1335947 
   2.706250007    -0.1369956    0.1373418     0.1835636   -0.7020313     0.1801772   -0.7047117    -0.0821133   -0.1332592 
   2.715000007    -0.0976869    0.1657680    -0.0561993   -0.7233472    -0.0593124   -0.7227530    -0.1221596   -0.1526554 
   2.723750007    -0.0407704    0.2009830    -0.2800125   -0.6557276    -0.2754207   -0.6556049    -0.2017808   -0.1286313 
   2.732500007     0.0465393    0.2069050    -0.4554353   -0.5299700    -0.4484762   -0.5381351    -0.2591030   -0.0427563 
   2.741250007     0.1269920    0.1586925    -0.5890156   -0.3739237    -0.5867748   -0.3857911    -0.2554318    0.0582961 
   2.750000007     0.1529008    0.0840890    -0.6753837   -0.1862081    -0.6818399   -0.1936085    -0.2157590    0.1317429 
   2.758750007     0.1377217    0.0368281    -0.7044867    0.0286313    -0.7152324    0.0294896    -0.1726981    0.1872018 
   2.767500007     0.1340404    0.0273275    -0.6632690    0.2568410    -0.6700125    0.2559816    -0.1160828    0.2481797 
   2.776250007     0.1632777    0.0097464    -0.5397419    0.4481774    -0.5474994    0.4526303    -0.0164841    0.2965865 
   2.785000007     0.1889461   -0.0473222    -0.3727306    0.5780619    -0.3790780    0.5823558     0.1138059    0.2850215 
   2.793750007     0.1762564   -0.1214610    -0.1877799    0.6548012    -0.1923385    0.6630726     0.2200304    0.1964418 
   2.802500007     0.1343021   -0.1811514     0.0145713    0.6855420     0.0093116    0.6957105     0.2511852    0.0724458 
   2.811250007     0.0750389   -0.2305609     0.2250729    0.6515898     0.2257683    0.6682432     0.2136149   -0.0228422 
   2.820000006    -0.0132385   -0.2641926     0.4142053    0.5492979     0.4244064    0.5663247     0.1557347   -0.0650526 
   2.828750006    -0.1283866   -0.2509955     0.5580686    0.3947849     0.5779421    0.4062771     0.1135784   -0.0708069 
   2.837500006    -0.2293599   -0.1681812     0.6487610    0.2095135     0.6702543    0.2102120     0.0960429   -0.0652588 
   2.846250006    -0.2658237   -0.0384643     0.6834676    0.0083525     0.7011956   -0.0021599     0.0974427   -0.0666646 
   2.855000006    -0.2209665    0.0806887     0.6603163   -0.1983787     0.6705560   -0.2124275     0.1082538   -0.0842469 
   2.863750006    -0.1305806    0.1355643     0.5766698   -0.3938859     0.5807968   -0.4073591     0.1157840   -0.1287253 
   2.872500006    -0.0576002    0.1265469     0.4337907   -0.5611992     0.4329799   -0.5736176     0.0892032   -0.2001223 
   2.881250006    -0.0309081    0.1038661     0.2313599   -0.6764631     0.2302584   -0.6869056     0.0003135   -0.2593908 
   2.890000006    -0.0209809    0.1067410    -0.0001748   -0.7105228    -0.0006659   -0.7232757    -0.1245739   -0.2492799 
   2.898750006     0.0072627    0.1192786    -0.2162373   -0.6651683    -0.2275229   -0.6832583    -0.2178856   -0.1664530 
   2.907500006     0.0463189    0.1135557    -0.4063340   -0.5649421    -0.4272825   -0.5757363    -0.2465372   -0.0633966 
   2.916250006     0.0713177    0.0953424    -0.5606091   -0.4124887    -0.5812098   -0.4110826    -0.2380070    0.0190263 
   2.925000006     0.0896258    0.0885709    -0.6555377   -0.2158182    -0.6751158   -0.2039385    -0.2199148    0.0925673 
   2.933750006     0.1305580    0.0855474    -0.6799179   -0.0000901    -0.6907186    0.0169880    -0.1764960    0.1752721 
   2.942500006     0.1913244    0.0467816    -0.6356024    0.1967782    -0.6362720    0.2113247    -0.0815640    0.2374484 
   2.951250006     0.2273035   -0.0398249    -0.5520153    0.3620046    -0.5510980    0.3737262     0.0414813    0.2305598 
   2.960000006     0.2074269   -0.1392961    -0.4361071    0.5148416    -0.4367095    0.5246063     0.1243753    0.1491727 
   2.968750006     0.1424873   -0.2163763    -0.2635286    0.6437337    -0.2635142    0.6586013     0.1234485    0.0568631 
   2.977500006     0.0557551   -0.2547928    -0.0454386    0.6968185    -0.0332561    0.7226188     0.0747355    0.0208099 
   2.986250006    -0.0430841   -0.2607109     0.1857912    0.6748633     0.2055970    0.6928148     0.0448708    0.0430130 
   2.995000006    -0.1354751   -0.2212347     0.3826526    0.5767843     0.4107977    0.5840083     0.0660920    0.0777819 
   3.003750006    -0.1981556   -0.1431175     0.5341664    0.4306282     0.5644017    0.4221237     0.1234906    0.0825687 
   3.012500006    -0.2112874   -0.0511011     0.6393064    0.2496679     0.6580709    0.2299735     0.1847996    0.0425594 
   3.021250006    -0.1796766    0.0191935     0.6899583    0.0421977     0.6977242    0.0217470     0.2254622   -0.0355402 
   3.030000006    -0.1370877    0.0446736     0.6725715   -0.1779768     0.6725196   -0.1927616     0.2252937   -0.1430619 
   3.038750005    -0.1229869    0.0500075     0.5773771   -0.3829517     0.5768359   -0.3932317     0.1572126   -0.2538922 
   3.047500005    -0.1280779    0.0784403     0.4197845   -0.5356067     0.4226692   -0.5447824     0.0232943   -0.3118854 
   3.056250005    -0.1063828    0.1316783     0.2396642   -0.6241213     0.2397109   -0.6426997    -0.1201016   -0.2775751 
   3.065000005    -0.0450624    0.1667057     0.0499996   -0.6673221     0.0371413   -0.6868255    -0.2025195   -0.1773014 
   3.073750005     0.0202438    0.1577945    -0.1557451   -0.6602611    -0.1780504   -0.6679012    -0.2141991   -0.0807945 
   3.082500005     0.0539059    0.1283122    -0.3575118   -0.5819647    -0.3781453   -0.5788839    -0.2026414   -0.0190038 
   3.091250005     0.0682907    0.1183402    -0.5203487   -0.4371889    -0.5367959   -0.4269446    -0.1959070    0.0377974 
   3.100000005     0.1050314    0.1253923    -0.6211649   -0.2534134    -0.6313902   -0.2383302    -0.1657962    0.1084623 
   3.108750005     0.1731788    0.1057860    -0.6623414   -0.0604253    -0.6684539   -0.0426917    -0.0885377    0.1576605 
   3.117500005     0.2350489    0.0350953    -0.6602129    0.1378257    -0.6601143    0.1530349    -0.0026979    0.1407784 
   3.126250005     0.2544981   -0.0704605    -0.6005139    0.3437193    -0.5940663    0.3526907     0.0292098    0.0807365 
   3.135000005     0.2174917   -0.1810738    -0.4593768    0.5277568    -0.4535826    0.5396325     0.0047515    0.0463361 
   3.143750005     0.1253745   -0.2645870    -0.2567040    0.6447451    -0.2530109    0.6506728    -0.0236188    0.0654691 
   3.152500005     0.0001399   -0.2900584    -0.0384039    0.6818506    -0.0276150    0.6912931    -0.0100355    0.1150865 
   3.161250005    -0.1148363   -0.2443876     0.1661912    0.6517973     0.1854670    0.6554499     0.0511785    0.1490079 
   3.170000005    -0.1780268   -0.1517738     0.3536565    0.5702816     0.3745328    0.5626175     0.1374929    0.1381412 
   3.178750005    -0.1746184   -0.0593051     0.5207866    0.4302953     0.5280581    0.4167922     0.2176077    0.0748640 
   3.187500005    -0.1299301   -0.0143387     0.6345677    0.2366617     0.6355850    0.2249842     0.2643265   -0.0347831 
   3.196250005    -0.1010914   -0.0262055     0.6745918    0.0215011     0.6726623    0.0116317     0.2478094   -0.1727577 
   3.205000005    -0.1243763   -0.0444655     0.6309365   -0.1839411     0.6318106   -0.1977146     0.1456427   -0.2933868 
   3.213750005    -0.1762775   -0.0124064     0.5306671   -0.3582314     0.5268738   -0.3676091    -0.0149299   -0.3317299 
   3.222500005    -0.1955308    0.0673595     0.3953165   -0.4826778     0.3888345   -0.4944398    -0.1576887   -0.2697700 
   3.231250005    -0.1621327    0.1508667     0.2377141   -0.5761656     0.2260087   -0.5871847    -0.2248337   -0.1591216 
   3.240000005    -0.0938731    0.2062468     0.0530705   -0.6269151     0.0365436   -0.6344948    -0.2262768   -0.0675260 
   3.248750005    -0.0135998    0.2319198    -0.1487630   -0.6177009    -0.1647862   -0.6176674    -0.2126179   -0.0097077 
   3.257500004     0.0736842    0.2352904    -0.3377272   -0.5419504    -0.3474900   -0.5344789    -0.2022811    0.0418056 
   3.266250004     0.1688203    0.2088405    -0.4881149   -0.4115870    -0.4934066   -0.4021572    -0.1730866    0.0963239 
   3.275000004     0.2598664    0.1351771    -0.5966119   -0.2404683    -0.5993840   -0.2303704    -0.1235536    0.1222295 
   3.283750004     0.3126821    0.0135921    -0.6490033   -0.0256212    -0.6477540   -0.0164999    -0.0960414    0.1166169 
   3.292500004     0.3017147   -0.1244047    -0.6089881    0.2013362    -0.6078176    0.2065287    -0.1034055    0.1310700 
   3.301250004     0.2295967   -0.2426498    -0.4859497    0.3805909    -0.4873302    0.3892381    -0.0956000    0.1917970 
   3.310000004     0.1161041   -0.3144947    -0.3258485    0.4914728    -0.3224933    0.5047382    -0.0304853    0.2624513 
   3.318750004    -0.0076705   -0.3287144    -0.1564650    0.5472949    -0.1450819    0.5564441     0.0876124    0.2940703 
   3.327500004    -0.1131094   -0.2970228     0.0158540    0.5583484     0.0298475    0.5556414     0.2239976    0.2566767 
   3.336250004    -0.1910865   -0.2406316     0.1855919    0.5171885     0.1905130    0.5060103     0.3323996    0.1513437 
   3.345000004    -0.2480813   -0.1733984     0.3314201    0.4171621     0.3336928    0.4110712     0.3865159    0.0009919 
   3.353750004    -0.2884949   -0.0999958     0.4269006    0.2738095     0.4279050    0.2743419     0.3722414   -0.1668161 
   3.362500004    -0.3227881   -0.0146175     0.4628800    0.1232691     0.4689769    0.1224437     0.2816572   -0.3235106 
   3.371250004    -0.3395255    0.1013253     0.4580358   -0.0144621     0.4643182   -0.0216607     0.1225499   -0.4247662 
   3.380000004    -0.2993124    0.2392205     0.4249008   -0.1447888     0.4249499   -0.1549711    -0.0671895   -0.4404645 
   3.388750004    -0.1876598    0.3521433     0.3498558   -0.2616311     0.3434376   -0.2741355    -0.2332742   -0.3718245 
   3.397500004    -0.0295681    0.4068571     0.2326701   -0.3410562     0.2205238   -0.3446682    -0.3442757   -0.2589059 
   3.406250004     0.1440018    0.3901797     0.1040188   -0.3592767     0.0953626   -0.3517858    -0.4160314   -0.1255650 
   3.415000004     0.2991503    0.2966045     0.0047880   -0.3282939     0.0041514   -0.3203492    -0.4455296    0.0306914 
